
T0AB0 000:334 SEGGER J-Link V4.96d Log File (0000ms, 0303ms total)
T0AB0 000:334 DLL Compiled: Jan 29 2015 11:45:37 (0000ms, 0303ms total)
T0AB0 000:334 Logging started @ 2016-10-21 12:33 (0000ms, 0303ms total)
T0AB0 000:334 JLINK_SetWarnOutHandler(...) (0000ms, 0303ms total)
T0AB0 000:334 JLINK_OpenEx(...)
Firmware: J-Link V9 compiled Jul 29 2016 18:50:09
Hardware: V9.20
S/N: 269200000
Feature(s): GDB, RDI, FlashBP, FlashDL, JFlash, RDDI  returns O.K. (0286ms, 0589ms total)
T0AB0 000:620 JLINK_SetErrorOutHandler(...) (0000ms, 0589ms total)
T0AB0 000:620 JLINK_ExecCommand("ProjectFile = "E:\project\M0\hq\19_FullÊµÑé\Full\JLinkSettings.ini"", ...)Device "LPC11C14/301" selected.  returns 0x00 (0003ms, 0592ms total)
T0AB0 000:625 JLINK_ExecCommand("Device = LPC11C14x301", ...)Device "LPC11C14/301" selected.  returns 0x00 (0002ms, 0594ms total)
T0AB0 000:627 JLINK_ExecCommand("DisableConnectionTimeout", ...)  returns 0x01 (0000ms, 0594ms total)
T0AB0 000:627 JLINK_GetHardwareVersion()  returns 0x16760 (0000ms, 0594ms total)
T0AB0 000:627 JLINK_GetDLLVersion()  returns 49604 (0000ms, 0594ms total)
T0AB0 000:627 JLINK_GetFirmwareString(...) (0000ms, 0594ms total)
T0AB0 000:631 JLINK_GetDLLVersion()  returns 49604 (0000ms, 0594ms total)
T0AB0 000:631 JLINK_GetCompileDateTime() (0000ms, 0594ms total)
T0AB0 000:632 JLINK_GetFirmwareString(...) (0000ms, 0594ms total)
T0AB0 000:634 JLINK_GetHardwareVersion()  returns 0x16760 (0000ms, 0594ms total)
T0AB0 000:641 JLINK_TIF_Select(JLINKARM_TIF_SWD)  returns 0x00 (0005ms, 0599ms total)
T0AB0 000:646 JLINK_SetSpeed(20000) (0002ms, 0601ms total)
T0AB0 000:648 JLINK_GetId() >0x108 TIF>Found SWD-DP with ID 0x0BB11477 >0x0D TIF> >0x21 TIF> >0x0D TIF> >0x28 TIF> >0x0D TIF> >0x28 TIF> >0x0D TIF> >0x21 TIF> >0x0D TIF> >0x28 TIF> >0x0D TIF> >0x21 TIF> >0x0D TIF> >0x21 TIF> >0x0D TIF> >0x21 TIF> >0x0D TIF> >0x21 TIF> >0x0D TIF> >0x28 TIF> >0x0D TIF> >0x28 TIF> >0x0D TIF> >0x21 TIF> >0x0D TIF> >0x28 TIF> >0x0D TIF> >0x28 TIF> >0x0D TIF> >0x28 TIF> >0x0D TIF> >0x21 TIF> >0x0D TIF> >0x21 TIF> >0x0D TIF> >0x28 TIF> >0x0D TIF> >0x21 TIF> >0x0D TIF>
 >0x21 TIF>Found Cortex-M0 r0p0, Little endian. -- CPU_WriteMem(4 bytes @ 0xE0002000) -- CPU_ReadMem(4 bytes @ 0xE000EDF0) -- CPU_ReadMem(4 bytes @ 0xE0002000)FPUnit: 4 code (BP) slots and 0 literal slots -- CPU_ReadMem(4 bytes @ 0xE000EDFC) -- CPU_ReadMem(4 bytes @ 0xE0001000) -- CPU_WriteMem(4 bytes @ 0xE0001000) -- CPU_ReadMem(4 bytes @ 0xE00FF018) >0x0D TIF> >0x21 TIF>  returns 0x0BB11477 (0087ms, 0688ms total)
T0AB0 000:735 JLINK_GetDLLVersion()  returns 49604 (0000ms, 0688ms total)
T0AB0 000:735 JLINK_CORE_GetFound()  returns 0x60000FF (0000ms, 0688ms total)
T0AB0 000:735 JLINK_GetDebugInfo(0x100) -- Value=0xE00FF003  returns 0x00 (0000ms, 0688ms total)
T0AB0 000:737 JLINK_ReadMem (0xE00FF000, 0x0020 Bytes, ...) -- CPU is running -- CPU_ReadMem(32 bytes @ 0xE00FF000) - Data: 03 F0 F0 FF 03 20 F0 FF 03 30 F0 FF 00 00 00 00 ...  returns 0x00 (0001ms, 0689ms total)
T0AB0 000:738 JLINK_ReadMem (0xE000EFF0, 0x0010 Bytes, ...) -- CPU is running -- CPU_ReadMem(16 bytes @ 0xE000EFF0) - Data: 0D 00 00 00 E0 00 00 00 05 00 00 00 B1 00 00 00  returns 0x00 (0001ms, 0690ms total)
T0AB0 000:739 JLINK_ReadMem (0xE000EFD0, 0x0020 Bytes, ...) -- CPU is running -- CPU_ReadMem(32 bytes @ 0xE000EFD0) - Data: 04 00 00 00 00 00 00 00 00 00 00 00 00 00 00 00 ...  returns 0x00 (0002ms, 0692ms total)
T0AB0 000:741 JLINK_ReadMem (0xE0001FF0, 0x0010 Bytes, ...) -- CPU is running -- CPU_ReadMem(16 bytes @ 0xE0001FF0) - Data: 0D 00 00 00 E0 00 00 00 05 00 00 00 B1 00 00 00  returns 0x00 (0001ms, 0693ms total)
T0AB0 000:742 JLINK_ReadMem (0xE0001FD0, 0x0020 Bytes, ...) -- CPU is running -- CPU_ReadMem(32 bytes @ 0xE0001FD0) - Data: 04 00 00 00 00 00 00 00 00 00 00 00 00 00 00 00 ...  returns 0x00 (0002ms, 0695ms total)
T0AB0 000:744 JLINK_ReadMem (0xE0002FF0, 0x0010 Bytes, ...) -- CPU is running -- CPU_ReadMem(16 bytes @ 0xE0002FF0) - Data: 0D 00 00 00 E0 00 00 00 05 00 00 00 B1 00 00 00  returns 0x00 (0002ms, 0697ms total)
T0AB0 000:746 JLINK_ReadMem (0xE0002FD0, 0x0020 Bytes, ...) -- CPU is running -- CPU_ReadMem(32 bytes @ 0xE0002FD0) - Data: 04 00 00 00 00 00 00 00 00 00 00 00 00 00 00 00 ...  returns 0x00 (0001ms, 0698ms total)
T0AB0 000:747 JLINK_ReadMemU32(0xE000ED00, 0x0001 Items, ...) -- CPU is running -- CPU_ReadMem(4 bytes @ 0xE000ED00) - Data: 00 C2 0C 41  returns 0x01 (0002ms, 0700ms total)
T0AB0 000:749 JLINK_SetResetType(JLINKARM_RESET_TYPE_NORMAL)  returns JLINKARM_RESET_TYPE_NORMAL (0000ms, 0700ms total)
T0AB0 000:749 JLINK_Reset() -- CPU is running -- CPU_WriteMem(4 bytes @ 0xE000EDF0) -- CPU is running -- CPU_WriteMem(4 bytes @ 0xE000EDFC) >0x35 TIF> -- CPU is running -- CPU_WriteMem(4 bytes @ 0xE000ED0C) -- CPU is running -- CPU_ReadMem(4 bytes @ 0xE000EDF0) -- CPU is running -- CPU_ReadMem(4 bytes @ 0xE000EDF0) -- CPU is running -- CPU_WriteMem(4 bytes @ 0xE000EDF0) -- CPU is running -- CPU_WriteMem(4 bytes @ 0xE000EDFC) -- CPU is running -- CPU_ReadMem(4 bytes @ 0xE000EDF0)
 -- CPU_WriteMem(4 bytes @ 0xE000EDFC) -- CPU_WriteMem(4 bytes @ 0xE000EDFC) -- CPU_WriteMem(4 bytes @ 0xE000EDFC) -- CPU_WriteMem(4 bytes @ 0xE0001020) -- CPU_WriteMem(4 bytes @ 0xE0001024) -- CPU_WriteMem(4 bytes @ 0xE0001028) -- CPU_WriteMem(4 bytes @ 0xE000EDFC) -- CPU_WriteMem(4 bytes @ 0xE0001028) -- CPU_ReadMem(4 bytes @ 0x00000004) -- CPU_ReadMem(4 bytes @ 0xE0002000) -- CPU_ReadMem(4 bytes @ 0xE0002008) -- CPU_ReadMem(4 bytes @ 0xE000200C) -- CPU_ReadMem(4 bytes @ 0xE0002010)
 -- CPU_ReadMem(4 bytes @ 0xE0002014) -- CPU_WriteMem(4 bytes @ 0xE0002000) -- CPU_WriteMem(4 bytes @ 0xE0002008) -- CPU_WriteMem(4 bytes @ 0xE000200C) -- CPU_WriteMem(4 bytes @ 0xE0002010) -- CPU_WriteMem(4 bytes @ 0xE0002014) -- CPU_WriteMem(4 bytes @ 0xE0002000) -- CPU_WriteMem(4 bytes @ 0xE0002008) -- CPU_WriteMem(4 bytes @ 0xE000200C) -- CPU_WriteMem(4 bytes @ 0xE0002010) -- CPU_WriteMem(4 bytes @ 0xE0002014) -- CPU_WriteMem(4 bytes @ 0xE0002000) -- CPU_ReadMem(4 bytes @ 0xE000EDFC)
 -- CPU_ReadMem(4 bytes @ 0xE0001000) -- CPU_WriteMem(4 bytes @ 0xE0001000) (0276ms, 0976ms total)
T0AB0 001:025 JLINK_Halt()  returns 0x00 (0001ms, 0977ms total)
T0AB0 001:026 JLINK_IsHalted()  returns TRUE (0000ms, 0977ms total)
T0AB0 001:026 JLINK_ReadMemU32(0xE000EDF0, 0x0001 Items, ...) -- CPU_ReadMem(4 bytes @ 0xE000EDF0) - Data: 03 00 03 00  returns 0x01 (0002ms, 0979ms total)
T0AB0 001:028 JLINK_WriteU32(0xE000EDF0, 0xA05F0003) -- CPU_WriteMem(4 bytes @ 0xE000EDF0)  returns 0x00 (0001ms, 0980ms total)
T0AB0 001:029 JLINK_WriteU32(0xE000EDFC, 0x01000000) -- CPU_WriteMem(4 bytes @ 0xE000EDFC)  returns 0x00 (0002ms, 0982ms total)
T0AB0 001:037 JLINK_GetHWStatus(...)  returns 0x00 (0001ms, 0983ms total)
T0AB0 001:042 JLINK_GetNumBPUnits(Type = 0xFFFFFF00)  returns 0x04 (0000ms, 0983ms total)
T0AB0 001:042 JLINK_GetNumBPUnits(Type = 0xF0)  returns 0x2000 (0000ms, 0983ms total)
T0AB0 001:042 JLINK_GetNumWPUnits()  returns 0x02 (0000ms, 0983ms total)
T0AB0 001:046 JLINK_GetSpeed()  returns 0x2EE0 (0000ms, 0983ms total)
T0AB0 001:048 JLINK_ReadMemU32(0xE000E004, 0x0001 Items, ...) -- CPU_ReadMem(4 bytes @ 0xE000E004) - Data: 00 00 00 00  returns 0x01 (0002ms, 0985ms total)
T0AB0 001:050 JLINK_Halt()  returns 0x00 (0000ms, 0985ms total)
T0AB0 001:050 JLINK_IsHalted()  returns TRUE (0000ms, 0985ms total)
T0AB0 001:052 JLINK_WriteMem(0x10000000, 0x0170 Bytes, ...) - Data: 00 BE 0A E0 0D 78 2D 06 68 40 08 24 40 00 00 D3 ... -- CPU_WriteMem(368 bytes @ 0x10000000)  returns 0x170 (0003ms, 0988ms total)
T0AB0 001:055 JLINK_WriteReg(R0, 0x00000000)  returns 0x00 (0000ms, 0988ms total)
T0AB0 001:055 JLINK_WriteReg(R1, 0x00B71B00)  returns 0x00 (0000ms, 0988ms total)
T0AB0 001:055 JLINK_WriteReg(R2, 0x00000001)  returns 0x00 (0000ms, 0988ms total)
T0AB0 001:055 JLINK_WriteReg(R3, 0x00000000)  returns 0x00 (0000ms, 0988ms total)
T0AB0 001:055 JLINK_WriteReg(R4, 0x00000000)  returns 0x00 (0000ms, 0988ms total)
T0AB0 001:055 JLINK_WriteReg(R5, 0x00000000)  returns 0x00 (0000ms, 0988ms total)
T0AB0 001:055 JLINK_WriteReg(R6, 0x00000000)  returns 0x00 (0000ms, 0988ms total)
T0AB0 001:055 JLINK_WriteReg(R7, 0x00000000)  returns 0x00 (0000ms, 0988ms total)
T0AB0 001:055 JLINK_WriteReg(R8, 0x00000000)  returns 0x00 (0000ms, 0988ms total)
T0AB0 001:055 JLINK_WriteReg(R9, 0x10000168)  returns 0x00 (0000ms, 0988ms total)
T0AB0 001:055 JLINK_WriteReg(R10, 0x00000000)  returns 0x00 (0000ms, 0988ms total)
T0AB0 001:055 JLINK_WriteReg(R11, 0x00000000)  returns 0x00 (0000ms, 0988ms total)
T0AB0 001:055 JLINK_WriteReg(R12, 0x00000000)  returns 0x00 (0000ms, 0988ms total)
T0AB0 001:055 JLINK_WriteReg(R13 (SP), 0x10000800)  returns 0x00 (0000ms, 0988ms total)
T0AB0 001:055 JLINK_WriteReg(R14, 0x10000001)  returns 0x00 (0000ms, 0988ms total)
T0AB0 001:055 JLINK_WriteReg(R15 (PC), 0x1000003C)  returns 0x00 (0000ms, 0988ms total)
T0AB0 001:055 JLINK_WriteReg(XPSR, 0x01000000)  returns 0x00 (0000ms, 0988ms total)
T0AB0 001:055 JLINK_WriteReg(MSP, 0x10000800)  returns 0x00 (0000ms, 0988ms total)
T0AB0 001:055 JLINK_WriteReg(PSP, 0x10000800)  returns 0x00 (0000ms, 0988ms total)
T0AB0 001:055 JLINK_WriteReg(CFBP, 0x00000000)  returns 0x00 (0000ms, 0988ms total)
T0AB0 001:055 JLINK_SetBPEx(Addr = 0x10000000, Type = 0xFFFFFFF2)  returns 0x00000001 (0000ms, 0988ms total)
T0AB0 001:055 JLINK_Go() -- CPU_WriteMem(4 bytes @ 0xE0002000) -- CPU_WriteMem(4 bytes @ 0xE0002008) -- CPU_WriteMem(4 bytes @ 0xE000200C) -- CPU_WriteMem(4 bytes @ 0xE0002010) -- CPU_WriteMem(4 bytes @ 0xE0002014) -- CPU_WriteMem(4 bytes @ 0xE0001004) (0008ms, 0996ms total)
T0AB0 001:063 JLINK_IsHalted()  returns TRUE (0004ms, 1000ms total)
T0AB0 001:067 JLINK_ReadReg(R15 (PC))  returns 0x10000000 (0000ms, 0996ms total)
T0AB0 001:067 JLINK_ClrBPEx(BPHandle = 0x00000001)  returns 0x00 (0000ms, 0996ms total)
T0AB0 001:067 JLINK_ReadReg(R0)  returns 0x00000000 (0000ms, 0996ms total)
T0AB0 001:068 JLINK_WriteReg(R0, 0x00000000)  returns 0x00 (0000ms, 0996ms total)
T0AB0 001:068 JLINK_WriteReg(R1, 0x00001000)  returns 0x00 (0000ms, 0996ms total)
T0AB0 001:068 JLINK_WriteReg(R2, 0x000000FF)  returns 0x00 (0000ms, 0996ms total)
T0AB0 001:068 JLINK_WriteReg(R3, 0x00000000)  returns 0x00 (0000ms, 0996ms total)
T0AB0 001:068 JLINK_WriteReg(R4, 0x00000000)  returns 0x00 (0000ms, 0996ms total)
T0AB0 001:068 JLINK_WriteReg(R5, 0x00000000)  returns 0x00 (0000ms, 0996ms total)
T0AB0 001:068 JLINK_WriteReg(R6, 0x00000000)  returns 0x00 (0000ms, 0996ms total)
T0AB0 001:068 JLINK_WriteReg(R7, 0x00000000)  returns 0x00 (0000ms, 0996ms total)
T0AB0 001:068 JLINK_WriteReg(R8, 0x00000000)  returns 0x00 (0000ms, 0996ms total)
T0AB0 001:068 JLINK_WriteReg(R9, 0x10000168)  returns 0x00 (0000ms, 0996ms total)
T0AB0 001:068 JLINK_WriteReg(R10, 0x00000000)  returns 0x00 (0000ms, 0996ms total)
T0AB0 001:068 JLINK_WriteReg(R11, 0x00000000)  returns 0x00 (0000ms, 0996ms total)
T0AB0 001:068 JLINK_WriteReg(R12, 0x00000000)  returns 0x00 (0000ms, 0996ms total)
T0AB0 001:068 JLINK_WriteReg(R13 (SP), 0x10000800)  returns 0x00 (0000ms, 0996ms total)
T0AB0 001:068 JLINK_WriteReg(R14, 0x10000001)  returns 0x00 (0000ms, 0996ms total)
T0AB0 001:068 JLINK_WriteReg(R15 (PC), 0x10000020)  returns 0x00 (0000ms, 0996ms total)
T0AB0 001:068 JLINK_WriteReg(XPSR, 0x01000000)  returns 0x00 (0000ms, 0996ms total)
T0AB0 001:068 JLINK_WriteReg(MSP, 0x10000800)  returns 0x00 (0000ms, 0996ms total)
T0AB0 001:068 JLINK_WriteReg(PSP, 0x10000800)  returns 0x00 (0000ms, 0996ms total)
T0AB0 001:068 JLINK_WriteReg(CFBP, 0x00000000)  returns 0x00 (0000ms, 0996ms total)
T0AB0 001:068 JLINK_SetBPEx(Addr = 0x10000000, Type = 0xFFFFFFF2)  returns 0x00000002 (0000ms, 0996ms total)
T0AB0 001:068 JLINK_Go() -- CPU_WriteMem(4 bytes @ 0xE0002000) (0005ms, 1001ms total)
T0AB0 001:073 JLINK_IsHalted()  returns TRUE (0003ms, 1004ms total)
T0AB0 001:076 JLINK_ReadReg(R15 (PC))  returns 0x10000000 (0000ms, 1001ms total)
T0AB0 001:076 JLINK_ClrBPEx(BPHandle = 0x00000002)  returns 0x00 (0000ms, 1001ms total)
T0AB0 001:076 JLINK_ReadReg(R0)  returns 0x00000001 (0000ms, 1001ms total)
T0AB0 001:076 JLINK_WriteReg(R0, 0x00000000)  returns 0x00 (0000ms, 1001ms total)
T0AB0 001:076 JLINK_WriteReg(R1, 0x00001000)  returns 0x00 (0000ms, 1001ms total)
T0AB0 001:076 JLINK_WriteReg(R2, 0x000000FF)  returns 0x00 (0000ms, 1001ms total)
T0AB0 001:077 JLINK_WriteReg(R3, 0x00000000)  returns 0x00 (0000ms, 1001ms total)
T0AB0 001:077 JLINK_WriteReg(R4, 0x00000000)  returns 0x00 (0000ms, 1001ms total)
T0AB0 001:077 JLINK_WriteReg(R5, 0x00000000)  returns 0x00 (0000ms, 1001ms total)
T0AB0 001:077 JLINK_WriteReg(R6, 0x00000000)  returns 0x00 (0000ms, 1001ms total)
T0AB0 001:077 JLINK_WriteReg(R7, 0x00000000)  returns 0x00 (0000ms, 1001ms total)
T0AB0 001:077 JLINK_WriteReg(R8, 0x00000000)  returns 0x00 (0000ms, 1001ms total)
T0AB0 001:077 JLINK_WriteReg(R9, 0x10000168)  returns 0x00 (0000ms, 1001ms total)
T0AB0 001:077 JLINK_WriteReg(R10, 0x00000000)  returns 0x00 (0000ms, 1001ms total)
T0AB0 001:077 JLINK_WriteReg(R11, 0x00000000)  returns 0x00 (0000ms, 1001ms total)
T0AB0 001:077 JLINK_WriteReg(R12, 0x00000000)  returns 0x00 (0000ms, 1001ms total)
T0AB0 001:077 JLINK_WriteReg(R13 (SP), 0x10000800)  returns 0x00 (0000ms, 1001ms total)
T0AB0 001:077 JLINK_WriteReg(R14, 0x10000001)  returns 0x00 (0000ms, 1001ms total)
T0AB0 001:077 JLINK_WriteReg(R15 (PC), 0x100000A4)  returns 0x00 (0000ms, 1001ms total)
T0AB0 001:077 JLINK_WriteReg(XPSR, 0x01000000)  returns 0x00 (0000ms, 1001ms total)
T0AB0 001:077 JLINK_WriteReg(MSP, 0x10000800)  returns 0x00 (0000ms, 1001ms total)
T0AB0 001:077 JLINK_WriteReg(PSP, 0x10000800)  returns 0x00 (0000ms, 1001ms total)
T0AB0 001:077 JLINK_WriteReg(CFBP, 0x00000000)  returns 0x00 (0000ms, 1001ms total)
T0AB0 001:077 JLINK_SetBPEx(Addr = 0x10000000, Type = 0xFFFFFFF2)  returns 0x00000003 (0000ms, 1001ms total)
T0AB0 001:077 JLINK_Go() -- CPU_WriteMem(4 bytes @ 0xE0002000) (0005ms, 1006ms total)
T0AB0 001:082 JLINK_IsHalted()  returns FALSE (0002ms, 1008ms total)
T0AB0 001:143 JLINK_IsHalted()  returns FALSE (0001ms, 1007ms total)
T0AB0 001:145 JLINK_IsHalted()  returns FALSE (0001ms, 1007ms total)
T0AB0 001:147 JLINK_IsHalted()  returns FALSE (0000ms, 1006ms total)
T0AB0 001:148 JLINK_IsHalted()  returns FALSE (0001ms, 1007ms total)
T0AB0 001:150 JLINK_IsHalted()  returns FALSE (0003ms, 1009ms total)
T0AB0 001:178 JLINK_IsHalted()  returns FALSE (0001ms, 1007ms total)
T0AB0 001:180 JLINK_IsHalted()  returns FALSE (0001ms, 1007ms total)
T0AB0 001:182 JLINK_IsHalted()  returns TRUE (0003ms, 1009ms total)
T0AB0 001:185 JLINK_ReadReg(R15 (PC))  returns 0x10000000 (0000ms, 1006ms total)
T0AB0 001:185 JLINK_ClrBPEx(BPHandle = 0x00000003)  returns 0x00 (0000ms, 1006ms total)
T0AB0 001:185 JLINK_ReadReg(R0)  returns 0x00000000 (0000ms, 1006ms total)
T0AB0 001:185 JLINK_WriteReg(R0, 0x00001000)  returns 0x00 (0000ms, 1006ms total)
T0AB0 001:185 JLINK_WriteReg(R1, 0x00001000)  returns 0x00 (0000ms, 1006ms total)
T0AB0 001:185 JLINK_WriteReg(R2, 0x000000FF)  returns 0x00 (0000ms, 1006ms total)
T0AB0 001:185 JLINK_WriteReg(R3, 0x00000000)  returns 0x00 (0000ms, 1006ms total)
T0AB0 001:185 JLINK_WriteReg(R4, 0x00000000)  returns 0x00 (0000ms, 1006ms total)
T0AB0 001:185 JLINK_WriteReg(R5, 0x00000000)  returns 0x00 (0000ms, 1006ms total)
T0AB0 001:185 JLINK_WriteReg(R6, 0x00000000)  returns 0x00 (0000ms, 1006ms total)
T0AB0 001:185 JLINK_WriteReg(R7, 0x00000000)  returns 0x00 (0000ms, 1006ms total)
T0AB0 001:185 JLINK_WriteReg(R8, 0x00000000)  returns 0x00 (0000ms, 1006ms total)
T0AB0 001:185 JLINK_WriteReg(R9, 0x10000168)  returns 0x00 (0000ms, 1006ms total)
T0AB0 001:185 JLINK_WriteReg(R10, 0x00000000)  returns 0x00 (0000ms, 1006ms total)
T0AB0 001:185 JLINK_WriteReg(R11, 0x00000000)  returns 0x00 (0000ms, 1006ms total)
T0AB0 001:185 JLINK_WriteReg(R12, 0x00000000)  returns 0x00 (0000ms, 1006ms total)
T0AB0 001:185 JLINK_WriteReg(R13 (SP), 0x10000800)  returns 0x00 (0000ms, 1006ms total)
T0AB0 001:185 JLINK_WriteReg(R14, 0x10000001)  returns 0x00 (0000ms, 1006ms total)
T0AB0 001:185 JLINK_WriteReg(R15 (PC), 0x10000020)  returns 0x00 (0000ms, 1006ms total)
T0AB0 001:185 JLINK_WriteReg(XPSR, 0x01000000)  returns 0x00 (0000ms, 1006ms total)
T0AB0 001:185 JLINK_WriteReg(MSP, 0x10000800)  returns 0x00 (0001ms, 1007ms total)
T0AB0 001:186 JLINK_WriteReg(PSP, 0x10000800)  returns 0x00 (0000ms, 1007ms total)
T0AB0 001:186 JLINK_WriteReg(CFBP, 0x00000000)  returns 0x00 (0000ms, 1007ms total)
T0AB0 001:186 JLINK_SetBPEx(Addr = 0x10000000, Type = 0xFFFFFFF2)  returns 0x00000004 (0000ms, 1007ms total)
T0AB0 001:186 JLINK_Go() -- CPU_WriteMem(4 bytes @ 0xE0002000) (0004ms, 1011ms total)
T0AB0 001:190 JLINK_IsHalted()  returns TRUE (0003ms, 1014ms total)
T0AB0 001:193 JLINK_ReadReg(R15 (PC))  returns 0x10000000 (0000ms, 1011ms total)
T0AB0 001:193 JLINK_ClrBPEx(BPHandle = 0x00000004)  returns 0x00 (0000ms, 1011ms total)
T0AB0 001:193 JLINK_ReadReg(R0)  returns 0x00000001 (0000ms, 1011ms total)
T0AB0 001:193 JLINK_WriteReg(R0, 0x00001000)  returns 0x00 (0000ms, 1011ms total)
T0AB0 001:193 JLINK_WriteReg(R1, 0x00001000)  returns 0x00 (0000ms, 1011ms total)
T0AB0 001:193 JLINK_WriteReg(R2, 0x000000FF)  returns 0x00 (0000ms, 1011ms total)
T0AB0 001:193 JLINK_WriteReg(R3, 0x00000000)  returns 0x00 (0000ms, 1011ms total)
T0AB0 001:193 JLINK_WriteReg(R4, 0x00000000)  returns 0x00 (0000ms, 1011ms total)
T0AB0 001:193 JLINK_WriteReg(R5, 0x00000000)  returns 0x00 (0000ms, 1011ms total)
T0AB0 001:193 JLINK_WriteReg(R6, 0x00000000)  returns 0x00 (0000ms, 1011ms total)
T0AB0 001:193 JLINK_WriteReg(R7, 0x00000000)  returns 0x00 (0000ms, 1011ms total)
T0AB0 001:193 JLINK_WriteReg(R8, 0x00000000)  returns 0x00 (0000ms, 1011ms total)
T0AB0 001:193 JLINK_WriteReg(R9, 0x10000168)  returns 0x00 (0000ms, 1011ms total)
T0AB0 001:193 JLINK_WriteReg(R10, 0x00000000)  returns 0x00 (0000ms, 1011ms total)
T0AB0 001:193 JLINK_WriteReg(R11, 0x00000000)  returns 0x00 (0001ms, 1012ms total)
T0AB0 001:194 JLINK_WriteReg(R12, 0x00000000)  returns 0x00 (0000ms, 1012ms total)
T0AB0 001:194 JLINK_WriteReg(R13 (SP), 0x10000800)  returns 0x00 (0000ms, 1012ms total)
T0AB0 001:194 JLINK_WriteReg(R14, 0x10000001)  returns 0x00 (0000ms, 1012ms total)
T0AB0 001:194 JLINK_WriteReg(R15 (PC), 0x100000A4)  returns 0x00 (0000ms, 1012ms total)
T0AB0 001:194 JLINK_WriteReg(XPSR, 0x01000000)  returns 0x00 (0000ms, 1012ms total)
T0AB0 001:194 JLINK_WriteReg(MSP, 0x10000800)  returns 0x00 (0000ms, 1012ms total)
T0AB0 001:194 JLINK_WriteReg(PSP, 0x10000800)  returns 0x00 (0000ms, 1012ms total)
T0AB0 001:194 JLINK_WriteReg(CFBP, 0x00000000)  returns 0x00 (0000ms, 1012ms total)
T0AB0 001:194 JLINK_SetBPEx(Addr = 0x10000000, Type = 0xFFFFFFF2)  returns 0x00000005 (0000ms, 1012ms total)
T0AB0 001:194 JLINK_Go() -- CPU_WriteMem(4 bytes @ 0xE0002000) (0005ms, 1017ms total)
T0AB0 001:199 JLINK_IsHalted()  returns FALSE (0001ms, 1018ms total)
T0AB0 001:210 JLINK_IsHalted()  returns FALSE (0001ms, 1018ms total)
T0AB0 001:212 JLINK_IsHalted()  returns FALSE (0002ms, 1019ms total)
T0AB0 001:215 JLINK_IsHalted()  returns FALSE (0000ms, 1017ms total)
T0AB0 001:216 JLINK_IsHalted()  returns FALSE (0001ms, 1018ms total)
T0AB0 001:226 JLINK_IsHalted()  returns FALSE (0001ms, 1018ms total)
T0AB0 001:228 JLINK_IsHalted()  returns FALSE (0001ms, 1018ms total)
T0AB0 001:232 JLINK_IsHalted()  returns FALSE (0000ms, 1017ms total)
T0AB0 001:233 JLINK_IsHalted()  returns FALSE (0001ms, 1018ms total)
T0AB0 001:235 JLINK_IsHalted()  returns FALSE (0001ms, 1018ms total)
T0AB0 001:237 JLINK_IsHalted()  returns FALSE (0002ms, 1019ms total)
T0AB0 001:242 JLINK_IsHalted()  returns FALSE (0000ms, 1017ms total)
T0AB0 001:243 JLINK_IsHalted()  returns FALSE (0001ms, 1018ms total)
T0AB0 001:246 JLINK_IsHalted()  returns FALSE (0000ms, 1017ms total)
T0AB0 001:247 JLINK_IsHalted()  returns FALSE (0001ms, 1018ms total)
T0AB0 001:249 JLINK_IsHalted()  returns FALSE (0000ms, 1017ms total)
T0AB0 001:250 JLINK_IsHalted()  returns FALSE (0001ms, 1018ms total)
T0AB0 001:252 JLINK_IsHalted()  returns FALSE (0000ms, 1017ms total)
T0AB0 001:254 JLINK_IsHalted()  returns FALSE (0001ms, 1018ms total)
T0AB0 001:259 JLINK_IsHalted()  returns FALSE (0001ms, 1018ms total)
T0AB0 001:261 JLINK_IsHalted()  returns FALSE (0001ms, 1018ms total)
T0AB0 001:298 JLINK_IsHalted()  returns TRUE (0003ms, 1020ms total)
T0AB0 001:301 JLINK_ReadReg(R15 (PC))  returns 0x10000000 (0000ms, 1017ms total)
T0AB0 001:301 JLINK_ClrBPEx(BPHandle = 0x00000005)  returns 0x00 (0000ms, 1017ms total)
T0AB0 001:301 JLINK_ReadReg(R0)  returns 0x00000000 (0001ms, 1018ms total)
T0AB0 001:302 JLINK_WriteReg(R0, 0x00002000)  returns 0x00 (0000ms, 1018ms total)
T0AB0 001:302 JLINK_WriteReg(R1, 0x00001000)  returns 0x00 (0000ms, 1018ms total)
T0AB0 001:302 JLINK_WriteReg(R2, 0x000000FF)  returns 0x00 (0000ms, 1018ms total)
T0AB0 001:302 JLINK_WriteReg(R3, 0x00000000)  returns 0x00 (0000ms, 1018ms total)
T0AB0 001:302 JLINK_WriteReg(R4, 0x00000000)  returns 0x00 (0000ms, 1018ms total)
T0AB0 001:302 JLINK_WriteReg(R5, 0x00000000)  returns 0x00 (0000ms, 1018ms total)
T0AB0 001:302 JLINK_WriteReg(R6, 0x00000000)  returns 0x00 (0000ms, 1018ms total)
T0AB0 001:302 JLINK_WriteReg(R7, 0x00000000)  returns 0x00 (0000ms, 1018ms total)
T0AB0 001:302 JLINK_WriteReg(R8, 0x00000000)  returns 0x00 (0000ms, 1018ms total)
T0AB0 001:302 JLINK_WriteReg(R9, 0x10000168)  returns 0x00 (0000ms, 1018ms total)
T0AB0 001:302 JLINK_WriteReg(R10, 0x00000000)  returns 0x00 (0000ms, 1018ms total)
T0AB0 001:302 JLINK_WriteReg(R11, 0x00000000)  returns 0x00 (0000ms, 1018ms total)
T0AB0 001:302 JLINK_WriteReg(R12, 0x00000000)  returns 0x00 (0000ms, 1018ms total)
T0AB0 001:302 JLINK_WriteReg(R13 (SP), 0x10000800)  returns 0x00 (0000ms, 1018ms total)
T0AB0 001:302 JLINK_WriteReg(R14, 0x10000001)  returns 0x00 (0000ms, 1018ms total)
T0AB0 001:302 JLINK_WriteReg(R15 (PC), 0x10000020)  returns 0x00 (0000ms, 1018ms total)
T0AB0 001:302 JLINK_WriteReg(XPSR, 0x01000000)  returns 0x00 (0000ms, 1018ms total)
T0AB0 001:302 JLINK_WriteReg(MSP, 0x10000800)  returns 0x00 (0000ms, 1018ms total)
T0AB0 001:302 JLINK_WriteReg(PSP, 0x10000800)  returns 0x00 (0000ms, 1018ms total)
T0AB0 001:302 JLINK_WriteReg(CFBP, 0x00000000)  returns 0x00 (0000ms, 1018ms total)
T0AB0 001:302 JLINK_SetBPEx(Addr = 0x10000000, Type = 0xFFFFFFF2)  returns 0x00000006 (0000ms, 1018ms total)
T0AB0 001:302 JLINK_Go() -- CPU_WriteMem(4 bytes @ 0xE0002000) (0004ms, 1022ms total)
T0AB0 001:307 JLINK_IsHalted()  returns TRUE (0003ms, 1026ms total)
T0AB0 001:310 JLINK_ReadReg(R15 (PC))  returns 0x10000000 (0000ms, 1023ms total)
T0AB0 001:310 JLINK_ClrBPEx(BPHandle = 0x00000006)  returns 0x00 (0000ms, 1023ms total)
T0AB0 001:310 JLINK_ReadReg(R0)  returns 0x00000001 (0000ms, 1023ms total)
T0AB0 001:310 JLINK_WriteReg(R0, 0x00002000)  returns 0x00 (0000ms, 1023ms total)
T0AB0 001:310 JLINK_WriteReg(R1, 0x00001000)  returns 0x00 (0000ms, 1023ms total)
T0AB0 001:310 JLINK_WriteReg(R2, 0x000000FF)  returns 0x00 (0000ms, 1023ms total)
T0AB0 001:310 JLINK_WriteReg(R3, 0x00000000)  returns 0x00 (0000ms, 1023ms total)
T0AB0 001:310 JLINK_WriteReg(R4, 0x00000000)  returns 0x00 (0000ms, 1023ms total)
T0AB0 001:310 JLINK_WriteReg(R5, 0x00000000)  returns 0x00 (0000ms, 1023ms total)
T0AB0 001:310 JLINK_WriteReg(R6, 0x00000000)  returns 0x00 (0000ms, 1023ms total)
T0AB0 001:310 JLINK_WriteReg(R7, 0x00000000)  returns 0x00 (0000ms, 1023ms total)
T0AB0 001:310 JLINK_WriteReg(R8, 0x00000000)  returns 0x00 (0000ms, 1023ms total)
T0AB0 001:310 JLINK_WriteReg(R9, 0x10000168)  returns 0x00 (0000ms, 1023ms total)
T0AB0 001:310 JLINK_WriteReg(R10, 0x00000000)  returns 0x00 (0000ms, 1023ms total)
T0AB0 001:310 JLINK_WriteReg(R11, 0x00000000)  returns 0x00 (0000ms, 1023ms total)
T0AB0 001:310 JLINK_WriteReg(R12, 0x00000000)  returns 0x00 (0000ms, 1023ms total)
T0AB0 001:310 JLINK_WriteReg(R13 (SP), 0x10000800)  returns 0x00 (0000ms, 1023ms total)
T0AB0 001:310 JLINK_WriteReg(R14, 0x10000001)  returns 0x00 (0000ms, 1023ms total)
T0AB0 001:310 JLINK_WriteReg(R15 (PC), 0x100000A4)  returns 0x00 (0000ms, 1023ms total)
T0AB0 001:310 JLINK_WriteReg(XPSR, 0x01000000)  returns 0x00 (0000ms, 1023ms total)
T0AB0 001:310 JLINK_WriteReg(MSP, 0x10000800)  returns 0x00 (0000ms, 1023ms total)
T0AB0 001:310 JLINK_WriteReg(PSP, 0x10000800)  returns 0x00 (0000ms, 1023ms total)
T0AB0 001:310 JLINK_WriteReg(CFBP, 0x00000000)  returns 0x00 (0000ms, 1023ms total)
T0AB0 001:310 JLINK_SetBPEx(Addr = 0x10000000, Type = 0xFFFFFFF2)  returns 0x00000007 (0000ms, 1023ms total)
T0AB0 001:310 JLINK_Go() -- CPU_WriteMem(4 bytes @ 0xE0002000) (0005ms, 1028ms total)
T0AB0 001:315 JLINK_IsHalted()  returns FALSE (0001ms, 1029ms total)
T0AB0 001:319 JLINK_IsHalted()  returns FALSE (0001ms, 1029ms total)
T0AB0 001:321 JLINK_IsHalted()  returns FALSE (0001ms, 1029ms total)
T0AB0 001:323 JLINK_IsHalted()  returns FALSE (0000ms, 1028ms total)
T0AB0 001:326 JLINK_IsHalted()  returns FALSE (0001ms, 1029ms total)
T0AB0 001:328 JLINK_IsHalted()  returns FALSE (0001ms, 1029ms total)
T0AB0 001:330 JLINK_IsHalted()  returns FALSE (0001ms, 1029ms total)
T0AB0 001:332 JLINK_IsHalted()  returns FALSE (0000ms, 1028ms total)
T0AB0 001:334 JLINK_IsHalted()  returns FALSE (0001ms, 1029ms total)
T0AB0 001:336 JLINK_IsHalted()  returns FALSE (0000ms, 1028ms total)
T0AB0 001:337 JLINK_IsHalted()  returns FALSE (0002ms, 1030ms total)
T0AB0 001:340 JLINK_IsHalted()  returns FALSE (0001ms, 1029ms total)
T0AB0 001:342 JLINK_IsHalted()  returns FALSE (0001ms, 1029ms total)
T0AB0 001:344 JLINK_IsHalted()  returns FALSE (0001ms, 1029ms total)
T0AB0 001:346 JLINK_IsHalted()  returns FALSE (0001ms, 1029ms total)
T0AB0 001:348 JLINK_IsHalted()  returns FALSE (0001ms, 1029ms total)
T0AB0 001:350 JLINK_IsHalted()  returns FALSE (0000ms, 1028ms total)
T0AB0 001:351 JLINK_IsHalted()  returns FALSE (0001ms, 1029ms total)
T0AB0 001:353 JLINK_IsHalted()  returns FALSE (0001ms, 1029ms total)
T0AB0 001:355 JLINK_IsHalted()  returns FALSE (0001ms, 1029ms total)
T0AB0 001:357 JLINK_IsHalted()  returns FALSE (0001ms, 1029ms total)
T0AB0 001:359 JLINK_IsHalted()  returns FALSE (0001ms, 1029ms total)
T0AB0 001:361 JLINK_IsHalted()  returns FALSE (0001ms, 1029ms total)
T0AB0 001:363 JLINK_IsHalted()  returns FALSE (0001ms, 1029ms total)
T0AB0 001:365 JLINK_IsHalted()  returns FALSE (0001ms, 1029ms total)
T0AB0 001:367 JLINK_IsHalted()  returns FALSE (0001ms, 1029ms total)
T0AB0 001:369 JLINK_IsHalted()  returns FALSE (0001ms, 1029ms total)
T0AB0 001:384 JLINK_IsHalted()  returns FALSE (0000ms, 1028ms total)
T0AB0 001:385 JLINK_IsHalted()  returns FALSE (0001ms, 1029ms total)
T0AB0 001:387 JLINK_IsHalted()  returns FALSE (0000ms, 1028ms total)
T0AB0 001:388 JLINK_IsHalted()  returns FALSE (0001ms, 1029ms total)
T0AB0 001:390 JLINK_IsHalted()  returns FALSE (0001ms, 1029ms total)
T0AB0 001:392 JLINK_IsHalted()  returns FALSE (0001ms, 1029ms total)
T0AB0 001:394 JLINK_IsHalted()  returns FALSE (0001ms, 1029ms total)
T0AB0 001:396 JLINK_IsHalted()  returns FALSE (0001ms, 1029ms total)
T0AB0 001:398 JLINK_IsHalted()  returns FALSE (0001ms, 1029ms total)
T0AB0 001:401 JLINK_IsHalted()  returns FALSE (0001ms, 1029ms total)
T0AB0 001:403 JLINK_IsHalted()  returns FALSE (0001ms, 1029ms total)
T0AB0 001:405 JLINK_IsHalted()  returns FALSE (0001ms, 1029ms total)
T0AB0 001:407 JLINK_IsHalted()  returns FALSE (0001ms, 1029ms total)
T0AB0 001:409 JLINK_IsHalted()  returns FALSE (0001ms, 1029ms total)
T0AB0 001:411 JLINK_IsHalted()  returns FALSE (0001ms, 1029ms total)
T0AB0 001:413 JLINK_IsHalted()  returns FALSE (0000ms, 1028ms total)
T0AB0 001:414 JLINK_IsHalted()  returns TRUE (0003ms, 1031ms total)
T0AB0 001:417 JLINK_ReadReg(R15 (PC))  returns 0x10000000 (0000ms, 1028ms total)
T0AB0 001:417 JLINK_ClrBPEx(BPHandle = 0x00000007)  returns 0x00 (0000ms, 1028ms total)
T0AB0 001:417 JLINK_ReadReg(R0)  returns 0x00000000 (0000ms, 1028ms total)
T0AB0 001:418 JLINK_WriteReg(R0, 0x00003000)  returns 0x00 (0000ms, 1028ms total)
T0AB0 001:418 JLINK_WriteReg(R1, 0x00001000)  returns 0x00 (0000ms, 1028ms total)
T0AB0 001:418 JLINK_WriteReg(R2, 0x000000FF)  returns 0x00 (0000ms, 1028ms total)
T0AB0 001:418 JLINK_WriteReg(R3, 0x00000000)  returns 0x00 (0000ms, 1028ms total)
T0AB0 001:418 JLINK_WriteReg(R4, 0x00000000)  returns 0x00 (0000ms, 1028ms total)
T0AB0 001:418 JLINK_WriteReg(R5, 0x00000000)  returns 0x00 (0000ms, 1028ms total)
T0AB0 001:418 JLINK_WriteReg(R6, 0x00000000)  returns 0x00 (0000ms, 1028ms total)
T0AB0 001:418 JLINK_WriteReg(R7, 0x00000000)  returns 0x00 (0000ms, 1028ms total)
T0AB0 001:418 JLINK_WriteReg(R8, 0x00000000)  returns 0x00 (0000ms, 1028ms total)
T0AB0 001:418 JLINK_WriteReg(R9, 0x10000168)  returns 0x00 (0000ms, 1028ms total)
T0AB0 001:418 JLINK_WriteReg(R10, 0x00000000)  returns 0x00 (0000ms, 1028ms total)
T0AB0 001:418 JLINK_WriteReg(R11, 0x00000000)  returns 0x00 (0000ms, 1028ms total)
T0AB0 001:418 JLINK_WriteReg(R12, 0x00000000)  returns 0x00 (0000ms, 1028ms total)
T0AB0 001:418 JLINK_WriteReg(R13 (SP), 0x10000800)  returns 0x00 (0000ms, 1028ms total)
T0AB0 001:418 JLINK_WriteReg(R14, 0x10000001)  returns 0x00 (0000ms, 1028ms total)
T0AB0 001:418 JLINK_WriteReg(R15 (PC), 0x10000020)  returns 0x00 (0000ms, 1028ms total)
T0AB0 001:418 JLINK_WriteReg(XPSR, 0x01000000)  returns 0x00 (0000ms, 1028ms total)
T0AB0 001:418 JLINK_WriteReg(MSP, 0x10000800)  returns 0x00 (0000ms, 1028ms total)
T0AB0 001:418 JLINK_WriteReg(PSP, 0x10000800)  returns 0x00 (0000ms, 1028ms total)
T0AB0 001:418 JLINK_WriteReg(CFBP, 0x00000000)  returns 0x00 (0000ms, 1028ms total)
T0AB0 001:418 JLINK_SetBPEx(Addr = 0x10000000, Type = 0xFFFFFFF2)  returns 0x00000008 (0000ms, 1028ms total)
T0AB0 001:418 JLINK_Go() -- CPU_WriteMem(4 bytes @ 0xE0002000) (0004ms, 1032ms total)
T0AB0 001:422 JLINK_IsHalted()  returns TRUE (0004ms, 1036ms total)
T0AB0 001:426 JLINK_ReadReg(R15 (PC))  returns 0x10000000 (0000ms, 1032ms total)
T0AB0 001:426 JLINK_ClrBPEx(BPHandle = 0x00000008)  returns 0x00 (0000ms, 1032ms total)
T0AB0 001:426 JLINK_ReadReg(R0)  returns 0x00000001 (0000ms, 1032ms total)
T0AB0 001:426 JLINK_WriteReg(R0, 0x00003000)  returns 0x00 (0000ms, 1032ms total)
T0AB0 001:426 JLINK_WriteReg(R1, 0x00001000)  returns 0x00 (0000ms, 1032ms total)
T0AB0 001:426 JLINK_WriteReg(R2, 0x000000FF)  returns 0x00 (0000ms, 1032ms total)
T0AB0 001:426 JLINK_WriteReg(R3, 0x00000000)  returns 0x00 (0000ms, 1032ms total)
T0AB0 001:426 JLINK_WriteReg(R4, 0x00000000)  returns 0x00 (0000ms, 1032ms total)
T0AB0 001:426 JLINK_WriteReg(R5, 0x00000000)  returns 0x00 (0000ms, 1032ms total)
T0AB0 001:426 JLINK_WriteReg(R6, 0x00000000)  returns 0x00 (0000ms, 1032ms total)
T0AB0 001:426 JLINK_WriteReg(R7, 0x00000000)  returns 0x00 (0000ms, 1032ms total)
T0AB0 001:426 JLINK_WriteReg(R8, 0x00000000)  returns 0x00 (0000ms, 1032ms total)
T0AB0 001:426 JLINK_WriteReg(R9, 0x10000168)  returns 0x00 (0000ms, 1032ms total)
T0AB0 001:426 JLINK_WriteReg(R10, 0x00000000)  returns 0x00 (0000ms, 1032ms total)
T0AB0 001:426 JLINK_WriteReg(R11, 0x00000000)  returns 0x00 (0000ms, 1032ms total)
T0AB0 001:426 JLINK_WriteReg(R12, 0x00000000)  returns 0x00 (0000ms, 1032ms total)
T0AB0 001:426 JLINK_WriteReg(R13 (SP), 0x10000800)  returns 0x00 (0000ms, 1032ms total)
T0AB0 001:426 JLINK_WriteReg(R14, 0x10000001)  returns 0x00 (0000ms, 1032ms total)
T0AB0 001:426 JLINK_WriteReg(R15 (PC), 0x100000A4)  returns 0x00 (0000ms, 1032ms total)
T0AB0 001:426 JLINK_WriteReg(XPSR, 0x01000000)  returns 0x00 (0000ms, 1032ms total)
T0AB0 001:426 JLINK_WriteReg(MSP, 0x10000800)  returns 0x00 (0000ms, 1032ms total)
T0AB0 001:426 JLINK_WriteReg(PSP, 0x10000800)  returns 0x00 (0000ms, 1032ms total)
T0AB0 001:426 JLINK_WriteReg(CFBP, 0x00000000)  returns 0x00 (0000ms, 1032ms total)
T0AB0 001:426 JLINK_SetBPEx(Addr = 0x10000000, Type = 0xFFFFFFF2)  returns 0x00000009 (0000ms, 1032ms total)
T0AB0 001:426 JLINK_Go() -- CPU_WriteMem(4 bytes @ 0xE0002000) (0004ms, 1036ms total)
T0AB0 001:430 JLINK_IsHalted()  returns FALSE (0002ms, 1038ms total)
T0AB0 001:433 JLINK_IsHalted()  returns FALSE (0000ms, 1036ms total)
T0AB0 001:434 JLINK_IsHalted()  returns FALSE (0001ms, 1037ms total)
T0AB0 001:436 JLINK_IsHalted()  returns FALSE (0001ms, 1037ms total)
T0AB0 001:438 JLINK_IsHalted()  returns FALSE (0001ms, 1037ms total)
T0AB0 001:440 JLINK_IsHalted()  returns FALSE (0002ms, 1038ms total)
T0AB0 001:443 JLINK_IsHalted()  returns FALSE (0001ms, 1037ms total)
T0AB0 001:445 JLINK_IsHalted()  returns FALSE (0001ms, 1037ms total)
T0AB0 001:447 JLINK_IsHalted()  returns FALSE (0001ms, 1037ms total)
T0AB0 001:449 JLINK_IsHalted()  returns FALSE (0000ms, 1036ms total)
T0AB0 001:450 JLINK_IsHalted()  returns FALSE (0001ms, 1037ms total)
T0AB0 001:452 JLINK_IsHalted()  returns FALSE (0001ms, 1037ms total)
T0AB0 001:454 JLINK_IsHalted()  returns FALSE (0001ms, 1037ms total)
T0AB0 001:456 JLINK_IsHalted()  returns FALSE (0001ms, 1037ms total)
T0AB0 001:458 JLINK_IsHalted()  returns FALSE (0001ms, 1037ms total)
T0AB0 001:460 JLINK_IsHalted()  returns FALSE (0002ms, 1038ms total)
T0AB0 001:463 JLINK_IsHalted()  returns FALSE (0001ms, 1037ms total)
T0AB0 001:465 JLINK_IsHalted()  returns FALSE (0002ms, 1038ms total)
T0AB0 001:468 JLINK_IsHalted()  returns FALSE (0001ms, 1037ms total)
T0AB0 001:470 JLINK_IsHalted()  returns FALSE (0000ms, 1036ms total)
T0AB0 001:471 JLINK_IsHalted()  returns FALSE (0001ms, 1037ms total)
T0AB0 001:473 JLINK_IsHalted()  returns FALSE (0000ms, 1036ms total)
T0AB0 001:474 JLINK_IsHalted()  returns FALSE (0001ms, 1037ms total)
T0AB0 001:476 JLINK_IsHalted()  returns FALSE (0001ms, 1037ms total)
T0AB0 001:478 JLINK_IsHalted()  returns FALSE (0000ms, 1036ms total)
T0AB0 001:479 JLINK_IsHalted()  returns FALSE (0001ms, 1037ms total)
T0AB0 001:499 JLINK_IsHalted()  returns FALSE (0001ms, 1037ms total)
T0AB0 001:501 JLINK_IsHalted()  returns FALSE (0001ms, 1037ms total)
T0AB0 001:503 JLINK_IsHalted()  returns FALSE (0001ms, 1037ms total)
T0AB0 001:505 JLINK_IsHalted()  returns FALSE (0001ms, 1037ms total)
T0AB0 001:507 JLINK_IsHalted()  returns FALSE (0001ms, 1037ms total)
T0AB0 001:509 JLINK_IsHalted()  returns FALSE (0000ms, 1036ms total)
T0AB0 001:511 JLINK_IsHalted()  returns FALSE (0001ms, 1037ms total)
T0AB0 001:513 JLINK_IsHalted()  returns FALSE (0000ms, 1036ms total)
T0AB0 001:514 JLINK_IsHalted()  returns FALSE (0001ms, 1037ms total)
T0AB0 001:516 JLINK_IsHalted()  returns FALSE (0001ms, 1037ms total)
T0AB0 001:518 JLINK_IsHalted()  returns FALSE (0000ms, 1036ms total)
T0AB0 001:520 JLINK_IsHalted()  returns FALSE (0001ms, 1037ms total)
T0AB0 001:522 JLINK_IsHalted()  returns FALSE (0000ms, 1036ms total)
T0AB0 001:524 JLINK_IsHalted()  returns FALSE (0001ms, 1037ms total)
T0AB0 001:526 JLINK_IsHalted()  returns FALSE (0000ms, 1036ms total)
T0AB0 001:527 JLINK_IsHalted()  returns FALSE (0000ms, 1036ms total)
T0AB0 001:531 JLINK_IsHalted()  returns TRUE (0003ms, 1039ms total)
T0AB0 001:534 JLINK_ReadReg(R15 (PC))  returns 0x10000000 (0000ms, 1036ms total)
T0AB0 001:534 JLINK_ClrBPEx(BPHandle = 0x00000009)  returns 0x00 (0000ms, 1036ms total)
T0AB0 001:534 JLINK_ReadReg(R0)  returns 0x00000000 (0000ms, 1036ms total)
T0AB0 001:535 JLINK_WriteReg(R0, 0x00004000)  returns 0x00 (0000ms, 1036ms total)
T0AB0 001:535 JLINK_WriteReg(R1, 0x00001000)  returns 0x00 (0000ms, 1036ms total)
T0AB0 001:535 JLINK_WriteReg(R2, 0x000000FF)  returns 0x00 (0000ms, 1036ms total)
T0AB0 001:535 JLINK_WriteReg(R3, 0x00000000)  returns 0x00 (0000ms, 1036ms total)
T0AB0 001:535 JLINK_WriteReg(R4, 0x00000000)  returns 0x00 (0000ms, 1036ms total)
T0AB0 001:535 JLINK_WriteReg(R5, 0x00000000)  returns 0x00 (0000ms, 1036ms total)
T0AB0 001:535 JLINK_WriteReg(R6, 0x00000000)  returns 0x00 (0000ms, 1036ms total)
T0AB0 001:535 JLINK_WriteReg(R7, 0x00000000)  returns 0x00 (0000ms, 1036ms total)
T0AB0 001:535 JLINK_WriteReg(R8, 0x00000000)  returns 0x00 (0000ms, 1036ms total)
T0AB0 001:535 JLINK_WriteReg(R9, 0x10000168)  returns 0x00 (0000ms, 1036ms total)
T0AB0 001:535 JLINK_WriteReg(R10, 0x00000000)  returns 0x00 (0000ms, 1036ms total)
T0AB0 001:535 JLINK_WriteReg(R11, 0x00000000)  returns 0x00 (0000ms, 1036ms total)
T0AB0 001:535 JLINK_WriteReg(R12, 0x00000000)  returns 0x00 (0000ms, 1036ms total)
T0AB0 001:535 JLINK_WriteReg(R13 (SP), 0x10000800)  returns 0x00 (0000ms, 1036ms total)
T0AB0 001:535 JLINK_WriteReg(R14, 0x10000001)  returns 0x00 (0000ms, 1036ms total)
T0AB0 001:535 JLINK_WriteReg(R15 (PC), 0x10000020)  returns 0x00 (0000ms, 1036ms total)
T0AB0 001:535 JLINK_WriteReg(XPSR, 0x01000000)  returns 0x00 (0000ms, 1036ms total)
T0AB0 001:535 JLINK_WriteReg(MSP, 0x10000800)  returns 0x00 (0000ms, 1036ms total)
T0AB0 001:535 JLINK_WriteReg(PSP, 0x10000800)  returns 0x00 (0000ms, 1036ms total)
T0AB0 001:535 JLINK_WriteReg(CFBP, 0x00000000)  returns 0x00 (0000ms, 1036ms total)
T0AB0 001:535 JLINK_SetBPEx(Addr = 0x10000000, Type = 0xFFFFFFF2)  returns 0x0000000A (0000ms, 1036ms total)
T0AB0 001:535 JLINK_Go() -- CPU_WriteMem(4 bytes @ 0xE0002000) (0004ms, 1040ms total)
T0AB0 001:539 JLINK_IsHalted()  returns TRUE (0004ms, 1044ms total)
T0AB0 001:543 JLINK_ReadReg(R15 (PC))  returns 0x10000000 (0000ms, 1040ms total)
T0AB0 001:543 JLINK_ClrBPEx(BPHandle = 0x0000000A)  returns 0x00 (0000ms, 1040ms total)
T0AB0 001:543 JLINK_ReadReg(R0)  returns 0x00000001 (0000ms, 1040ms total)
T0AB0 001:543 JLINK_WriteReg(R0, 0x00004000)  returns 0x00 (0000ms, 1040ms total)
T0AB0 001:543 JLINK_WriteReg(R1, 0x00001000)  returns 0x00 (0000ms, 1040ms total)
T0AB0 001:543 JLINK_WriteReg(R2, 0x000000FF)  returns 0x00 (0000ms, 1040ms total)
T0AB0 001:543 JLINK_WriteReg(R3, 0x00000000)  returns 0x00 (0001ms, 1041ms total)
T0AB0 001:544 JLINK_WriteReg(R4, 0x00000000)  returns 0x00 (0000ms, 1041ms total)
T0AB0 001:544 JLINK_WriteReg(R5, 0x00000000)  returns 0x00 (0000ms, 1041ms total)
T0AB0 001:544 JLINK_WriteReg(R6, 0x00000000)  returns 0x00 (0000ms, 1041ms total)
T0AB0 001:544 JLINK_WriteReg(R7, 0x00000000)  returns 0x00 (0000ms, 1041ms total)
T0AB0 001:544 JLINK_WriteReg(R8, 0x00000000)  returns 0x00 (0000ms, 1041ms total)
T0AB0 001:544 JLINK_WriteReg(R9, 0x10000168)  returns 0x00 (0000ms, 1041ms total)
T0AB0 001:544 JLINK_WriteReg(R10, 0x00000000)  returns 0x00 (0000ms, 1041ms total)
T0AB0 001:544 JLINK_WriteReg(R11, 0x00000000)  returns 0x00 (0000ms, 1041ms total)
T0AB0 001:544 JLINK_WriteReg(R12, 0x00000000)  returns 0x00 (0000ms, 1041ms total)
T0AB0 001:544 JLINK_WriteReg(R13 (SP), 0x10000800)  returns 0x00 (0000ms, 1041ms total)
T0AB0 001:544 JLINK_WriteReg(R14, 0x10000001)  returns 0x00 (0000ms, 1041ms total)
T0AB0 001:544 JLINK_WriteReg(R15 (PC), 0x100000A4)  returns 0x00 (0000ms, 1041ms total)
T0AB0 001:544 JLINK_WriteReg(XPSR, 0x01000000)  returns 0x00 (0000ms, 1041ms total)
T0AB0 001:544 JLINK_WriteReg(MSP, 0x10000800)  returns 0x00 (0000ms, 1041ms total)
T0AB0 001:544 JLINK_WriteReg(PSP, 0x10000800)  returns 0x00 (0000ms, 1041ms total)
T0AB0 001:544 JLINK_WriteReg(CFBP, 0x00000000)  returns 0x00 (0000ms, 1041ms total)
T0AB0 001:544 JLINK_SetBPEx(Addr = 0x10000000, Type = 0xFFFFFFF2)  returns 0x0000000B (0000ms, 1041ms total)
T0AB0 001:544 JLINK_Go() -- CPU_WriteMem(4 bytes @ 0xE0002000) (0004ms, 1045ms total)
T0AB0 001:548 JLINK_IsHalted()  returns FALSE (0001ms, 1046ms total)
T0AB0 001:552 JLINK_IsHalted()  returns FALSE (0001ms, 1046ms total)
T0AB0 001:554 JLINK_IsHalted()  returns FALSE (0001ms, 1046ms total)
T0AB0 001:556 JLINK_IsHalted()  returns FALSE (0000ms, 1045ms total)
T0AB0 001:557 JLINK_IsHalted()  returns FALSE (0001ms, 1046ms total)
T0AB0 001:559 JLINK_IsHalted()  returns FALSE (0002ms, 1047ms total)
T0AB0 001:562 JLINK_IsHalted()  returns FALSE (0001ms, 1046ms total)
T0AB0 001:566 JLINK_IsHalted()  returns FALSE (0001ms, 1046ms total)
T0AB0 001:568 JLINK_IsHalted()  returns FALSE (0000ms, 1045ms total)
T0AB0 001:569 JLINK_IsHalted()  returns FALSE (0001ms, 1046ms total)
T0AB0 001:571 JLINK_IsHalted()  returns FALSE (0000ms, 1045ms total)
T0AB0 001:572 JLINK_IsHalted()  returns FALSE (0000ms, 1045ms total)
T0AB0 001:573 JLINK_IsHalted()  returns FALSE (0001ms, 1046ms total)
T0AB0 001:575 JLINK_IsHalted()  returns FALSE (0000ms, 1045ms total)
T0AB0 001:576 JLINK_IsHalted()  returns FALSE (0001ms, 1046ms total)
T0AB0 001:578 JLINK_IsHalted()  returns FALSE (0001ms, 1046ms total)
T0AB0 001:582 JLINK_IsHalted()  returns FALSE (0001ms, 1046ms total)
T0AB0 001:584 JLINK_IsHalted()  returns FALSE (0000ms, 1045ms total)
T0AB0 001:585 JLINK_IsHalted()  returns FALSE (0002ms, 1047ms total)
T0AB0 001:614 JLINK_IsHalted()  returns FALSE (0001ms, 1046ms total)
T0AB0 001:621 JLINK_IsHalted()  returns FALSE (0001ms, 1046ms total)
T0AB0 001:623 JLINK_IsHalted()  returns FALSE (0001ms, 1046ms total)
T0AB0 001:625 JLINK_IsHalted()  returns FALSE (0001ms, 1046ms total)
T0AB0 001:627 JLINK_IsHalted()  returns FALSE (0001ms, 1046ms total)
T0AB0 001:629 JLINK_IsHalted()  returns FALSE (0001ms, 1046ms total)
T0AB0 001:631 JLINK_IsHalted()  returns FALSE (0001ms, 1046ms total)
T0AB0 001:636 JLINK_IsHalted()  returns FALSE (0001ms, 1046ms total)
T0AB0 001:638 JLINK_IsHalted()  returns FALSE (0001ms, 1046ms total)
T0AB0 001:640 JLINK_IsHalted()  returns FALSE (0001ms, 1046ms total)
T0AB0 001:642 JLINK_IsHalted()  returns FALSE (0000ms, 1045ms total)
T0AB0 001:643 JLINK_IsHalted()  returns FALSE (0001ms, 1046ms total)
T0AB0 001:645 JLINK_IsHalted()  returns FALSE (0000ms, 1045ms total)
T0AB0 001:646 JLINK_IsHalted()  returns FALSE (0001ms, 1046ms total)
T0AB0 001:652 JLINK_IsHalted()  returns TRUE (0003ms, 1048ms total)
T0AB0 001:655 JLINK_ReadReg(R15 (PC))  returns 0x10000000 (0000ms, 1045ms total)
T0AB0 001:655 JLINK_ClrBPEx(BPHandle = 0x0000000B)  returns 0x00 (0000ms, 1045ms total)
T0AB0 001:655 JLINK_ReadReg(R0)  returns 0x00000000 (0000ms, 1045ms total)
T0AB0 001:656 JLINK_WriteReg(R0, 0x00005000)  returns 0x00 (0000ms, 1045ms total)
T0AB0 001:656 JLINK_WriteReg(R1, 0x00001000)  returns 0x00 (0000ms, 1045ms total)
T0AB0 001:656 JLINK_WriteReg(R2, 0x000000FF)  returns 0x00 (0000ms, 1045ms total)
T0AB0 001:656 JLINK_WriteReg(R3, 0x00000000)  returns 0x00 (0000ms, 1045ms total)
T0AB0 001:656 JLINK_WriteReg(R4, 0x00000000)  returns 0x00 (0000ms, 1045ms total)
T0AB0 001:656 JLINK_WriteReg(R5, 0x00000000)  returns 0x00 (0000ms, 1045ms total)
T0AB0 001:656 JLINK_WriteReg(R6, 0x00000000)  returns 0x00 (0000ms, 1045ms total)
T0AB0 001:656 JLINK_WriteReg(R7, 0x00000000)  returns 0x00 (0000ms, 1045ms total)
T0AB0 001:656 JLINK_WriteReg(R8, 0x00000000)  returns 0x00 (0000ms, 1045ms total)
T0AB0 001:656 JLINK_WriteReg(R9, 0x10000168)  returns 0x00 (0000ms, 1045ms total)
T0AB0 001:656 JLINK_WriteReg(R10, 0x00000000)  returns 0x00 (0000ms, 1045ms total)
T0AB0 001:656 JLINK_WriteReg(R11, 0x00000000)  returns 0x00 (0000ms, 1045ms total)
T0AB0 001:656 JLINK_WriteReg(R12, 0x00000000)  returns 0x00 (0000ms, 1045ms total)
T0AB0 001:656 JLINK_WriteReg(R13 (SP), 0x10000800)  returns 0x00 (0000ms, 1045ms total)
T0AB0 001:656 JLINK_WriteReg(R14, 0x10000001)  returns 0x00 (0000ms, 1045ms total)
T0AB0 001:656 JLINK_WriteReg(R15 (PC), 0x10000020)  returns 0x00 (0000ms, 1045ms total)
T0AB0 001:656 JLINK_WriteReg(XPSR, 0x01000000)  returns 0x00 (0000ms, 1045ms total)
T0AB0 001:656 JLINK_WriteReg(MSP, 0x10000800)  returns 0x00 (0000ms, 1045ms total)
T0AB0 001:656 JLINK_WriteReg(PSP, 0x10000800)  returns 0x00 (0000ms, 1045ms total)
T0AB0 001:656 JLINK_WriteReg(CFBP, 0x00000000)  returns 0x00 (0000ms, 1045ms total)
T0AB0 001:656 JLINK_SetBPEx(Addr = 0x10000000, Type = 0xFFFFFFF2)  returns 0x0000000C (0000ms, 1045ms total)
T0AB0 001:656 JLINK_Go() -- CPU_WriteMem(4 bytes @ 0xE0002000) (0005ms, 1050ms total)
T0AB0 001:661 JLINK_IsHalted()  returns TRUE (0003ms, 1053ms total)
T0AB0 001:664 JLINK_ReadReg(R15 (PC))  returns 0x10000000 (0000ms, 1050ms total)
T0AB0 001:664 JLINK_ClrBPEx(BPHandle = 0x0000000C)  returns 0x00 (0000ms, 1050ms total)
T0AB0 001:664 JLINK_ReadReg(R0)  returns 0x00000001 (0000ms, 1050ms total)
T0AB0 001:664 JLINK_WriteReg(R0, 0x00005000)  returns 0x00 (0000ms, 1050ms total)
T0AB0 001:664 JLINK_WriteReg(R1, 0x00001000)  returns 0x00 (0000ms, 1050ms total)
T0AB0 001:664 JLINK_WriteReg(R2, 0x000000FF)  returns 0x00 (0000ms, 1050ms total)
T0AB0 001:664 JLINK_WriteReg(R3, 0x00000000)  returns 0x00 (0000ms, 1050ms total)
T0AB0 001:664 JLINK_WriteReg(R4, 0x00000000)  returns 0x00 (0000ms, 1050ms total)
T0AB0 001:664 JLINK_WriteReg(R5, 0x00000000)  returns 0x00 (0000ms, 1050ms total)
T0AB0 001:664 JLINK_WriteReg(R6, 0x00000000)  returns 0x00 (0000ms, 1050ms total)
T0AB0 001:664 JLINK_WriteReg(R7, 0x00000000)  returns 0x00 (0000ms, 1050ms total)
T0AB0 001:664 JLINK_WriteReg(R8, 0x00000000)  returns 0x00 (0000ms, 1050ms total)
T0AB0 001:664 JLINK_WriteReg(R9, 0x10000168)  returns 0x00 (0000ms, 1050ms total)
T0AB0 001:664 JLINK_WriteReg(R10, 0x00000000)  returns 0x00 (0000ms, 1050ms total)
T0AB0 001:664 JLINK_WriteReg(R11, 0x00000000)  returns 0x00 (0000ms, 1050ms total)
T0AB0 001:664 JLINK_WriteReg(R12, 0x00000000)  returns 0x00 (0000ms, 1050ms total)
T0AB0 001:664 JLINK_WriteReg(R13 (SP), 0x10000800)  returns 0x00 (0000ms, 1050ms total)
T0AB0 001:664 JLINK_WriteReg(R14, 0x10000001)  returns 0x00 (0000ms, 1050ms total)
T0AB0 001:664 JLINK_WriteReg(R15 (PC), 0x100000A4)  returns 0x00 (0000ms, 1050ms total)
T0AB0 001:664 JLINK_WriteReg(XPSR, 0x01000000)  returns 0x00 (0000ms, 1050ms total)
T0AB0 001:664 JLINK_WriteReg(MSP, 0x10000800)  returns 0x00 (0000ms, 1050ms total)
T0AB0 001:664 JLINK_WriteReg(PSP, 0x10000800)  returns 0x00 (0000ms, 1050ms total)
T0AB0 001:664 JLINK_WriteReg(CFBP, 0x00000000)  returns 0x00 (0000ms, 1050ms total)
T0AB0 001:664 JLINK_SetBPEx(Addr = 0x10000000, Type = 0xFFFFFFF2)  returns 0x0000000D (0000ms, 1050ms total)
T0AB0 001:669 JLINK_Go() -- CPU_WriteMem(4 bytes @ 0xE0002000) (0004ms, 1059ms total)
T0AB0 001:673 JLINK_IsHalted()  returns FALSE (0001ms, 1060ms total)
T0AB0 001:680 JLINK_IsHalted()  returns FALSE (0004ms, 1063ms total)
T0AB0 001:685 JLINK_IsHalted()  returns FALSE (0003ms, 1062ms total)
T0AB0 001:689 JLINK_IsHalted()  returns FALSE (0001ms, 1060ms total)
T0AB0 001:691 JLINK_IsHalted()  returns FALSE (0001ms, 1060ms total)
T0AB0 001:693 JLINK_IsHalted()  returns FALSE (0001ms, 1060ms total)
T0AB0 001:695 JLINK_IsHalted()  returns FALSE (0001ms, 1060ms total)
T0AB0 001:697 JLINK_IsHalted()  returns FALSE (0001ms, 1060ms total)
T0AB0 001:699 JLINK_IsHalted()  returns FALSE (0000ms, 1059ms total)
T0AB0 001:700 JLINK_IsHalted()  returns FALSE (0001ms, 1060ms total)
T0AB0 001:727 JLINK_IsHalted()  returns FALSE (0001ms, 1060ms total)
T0AB0 001:729 JLINK_IsHalted()  returns FALSE (0001ms, 1060ms total)
T0AB0 001:731 JLINK_IsHalted()  returns FALSE (0001ms, 1060ms total)
T0AB0 001:733 JLINK_IsHalted()  returns FALSE (0001ms, 1060ms total)
T0AB0 001:735 JLINK_IsHalted()  returns FALSE (0001ms, 1060ms total)
T0AB0 001:737 JLINK_IsHalted()  returns FALSE (0001ms, 1060ms total)
T0AB0 001:740 JLINK_IsHalted()  returns FALSE (0001ms, 1060ms total)
T0AB0 001:742 JLINK_IsHalted()  returns FALSE (0000ms, 1059ms total)
T0AB0 001:743 JLINK_IsHalted()  returns FALSE (0001ms, 1060ms total)
T0AB0 001:745 JLINK_IsHalted()  returns FALSE (0000ms, 1059ms total)
T0AB0 001:746 JLINK_IsHalted()  returns FALSE (0001ms, 1060ms total)
T0AB0 001:748 JLINK_IsHalted()  returns FALSE (0001ms, 1060ms total)
T0AB0 001:750 JLINK_IsHalted()  returns FALSE (0002ms, 1061ms total)
T0AB0 001:753 JLINK_IsHalted()  returns FALSE (0001ms, 1060ms total)
T0AB0 001:755 JLINK_IsHalted()  returns FALSE (0000ms, 1059ms total)
T0AB0 001:756 JLINK_IsHalted()  returns FALSE (0001ms, 1060ms total)
T0AB0 001:758 JLINK_IsHalted()  returns FALSE (0000ms, 1059ms total)
T0AB0 001:759 JLINK_IsHalted()  returns FALSE (0001ms, 1060ms total)
T0AB0 001:761 JLINK_IsHalted()  returns FALSE (0001ms, 1060ms total)
T0AB0 001:763 JLINK_IsHalted()  returns FALSE (0001ms, 1060ms total)
T0AB0 001:765 JLINK_IsHalted()  returns FALSE (0001ms, 1060ms total)
T0AB0 001:767 JLINK_IsHalted()  returns FALSE (0001ms, 1060ms total)
T0AB0 001:771 JLINK_IsHalted()  returns FALSE (0000ms, 1059ms total)
T0AB0 001:772 JLINK_IsHalted()  returns FALSE (0002ms, 1061ms total)
T0AB0 001:775 JLINK_IsHalted()  returns TRUE (0003ms, 1062ms total)
T0AB0 001:778 JLINK_ReadReg(R15 (PC))  returns 0x10000000 (0000ms, 1059ms total)
T0AB0 001:778 JLINK_ClrBPEx(BPHandle = 0x0000000D)  returns 0x00 (0000ms, 1059ms total)
T0AB0 001:778 JLINK_ReadReg(R0)  returns 0x00000000 (0000ms, 1059ms total)
T0AB0 001:778 JLINK_WriteReg(R0, 0x00006000)  returns 0x00 (0000ms, 1059ms total)
T0AB0 001:778 JLINK_WriteReg(R1, 0x00001000)  returns 0x00 (0000ms, 1059ms total)
T0AB0 001:778 JLINK_WriteReg(R2, 0x000000FF)  returns 0x00 (0000ms, 1059ms total)
T0AB0 001:778 JLINK_WriteReg(R3, 0x00000000)  returns 0x00 (0000ms, 1059ms total)
T0AB0 001:778 JLINK_WriteReg(R4, 0x00000000)  returns 0x00 (0000ms, 1059ms total)
T0AB0 001:778 JLINK_WriteReg(R5, 0x00000000)  returns 0x00 (0000ms, 1059ms total)
T0AB0 001:778 JLINK_WriteReg(R6, 0x00000000)  returns 0x00 (0001ms, 1060ms total)
T0AB0 001:779 JLINK_WriteReg(R7, 0x00000000)  returns 0x00 (0000ms, 1060ms total)
T0AB0 001:779 JLINK_WriteReg(R8, 0x00000000)  returns 0x00 (0000ms, 1060ms total)
T0AB0 001:779 JLINK_WriteReg(R9, 0x10000168)  returns 0x00 (0000ms, 1060ms total)
T0AB0 001:779 JLINK_WriteReg(R10, 0x00000000)  returns 0x00 (0000ms, 1060ms total)
T0AB0 001:779 JLINK_WriteReg(R11, 0x00000000)  returns 0x00 (0000ms, 1060ms total)
